! Touchstone file generated by AntScope2 (calibration data)
# MHz S RI R 50
! Format: Frequency S-real S-imaginary (normalized to 50 Ohm)
0.0001 0.989636 -0.100984
0.000559 0.989495 -0.0998117
0.001018 0.989236 -0.100984
0.001477 0.989863 -0.0984888
0.001936 0.990243 -0.0992868
0.002395 0.990211 -0.0999053
0.002854 0.989188 -0.0999497
0.003313 0.990191 -0.100474
0.003772 0.989196 -0.0993641
0.004231 0.990195 -0.100328
0.00469 0.989826 -0.0999036
0.005149 0.989799 -0.10074
0.005608 0.989189 -0.0993995
0.006067 0.989254 -0.101156
0.006526 0.989497 -0.0982562
0.006985 0.989273 -0.100312
0.007444 0.989626 -0.0985032
0.007903 0.990305 -0.100518
0.008362 0.989889 -0.0993443
0.008821 0.989629 -0.101284
0.00928 0.990419 -0.100263
0.009739 0.989398 -0.0998197
0.010198 0.990222 -0.0998427
0.010657 0.989601 -0.0990463
0.011116 0.989483 -0.099735
0.011575 0.989493 -0.098552
0.012034 0.98948 -0.0997026
0.012493 0.989403 -0.0987297
0.012952 0.989945 -0.100599
0.013411 0.990321 -0.0995147
0.01387 0.98964 -0.101605
0.014329 0.989124 -0.09874
0.014788 0.989812 -0.0998257
0.015247 0.989824 -0.099001
0.015706 0.990226 -0.10058
0.016165 0.990301 -0.0998553
0.016624 0.989935 -0.100091
0.017083 0.989688 -0.099872
0.017542 0.990375 -0.100311
0.018001 0.99065 -0.100195
0.01846 0.989978 -0.0996802
0.018919 0.989815 -0.100194
0.019378 0.9898 -0.099152
0.019837 0.990596 -0.100116
0.020296 0.989326 -0.0990665
0.020755 0.988822 -0.0999803
0.021214 0.989769 -0.0986498
0.021673 0.990612 -0.10062
0.022132 0.990246 -0.0994134
0.022591 0.989518 -0.100748
0.02305 0.989626 -0.0996637
0.023509 0.98972 -0.10016
0.023968 0.99016 -0.0996462
0.024427 0.990116 -0.100217
0.024886 0.989528 -0.0994545
0.025345 0.99034 -0.0997819
0.025804 0.989364 -0.100605
0.026263 0.990578 -0.0995502
0.026722 0.990858 -0.100071
0.027181 0.989891 -0.0996562
0.02764 0.990065 -0.101266
0.028099 0.990647 -0.0987215
0.028558 0.989868 -0.0995951
0.029017 0.989356 -0.0981445
0.029476 0.988269 -0.101715
0.029935 0.989876 -0.0994641
0.030394 0.988953 -0.10024
0.030853 0.990351 -0.0988596
0.031312 0.989291 -0.100136
0.031771 0.990197 -0.100353
0.03223 0.989846 -0.100317
0.032689 0.990152 -0.0998063
0.033148 0.989321 -0.0994417
0.033607 0.989149 -0.0995413
0.034066 0.990064 -0.0999068
0.034525 0.990027 -0.101117
0.034984 0.989874 -0.0995586
0.035443 0.989831 -0.101993
0.035902 0.990201 -0.0997002
0.036361 0.990133 -0.100612
0.03682 0.990195 -0.0986207
0.037279 0.989963 -0.101267
0.037738 0.989929 -0.0986007
0.038197 0.989406 -0.100486
0.038656 0.989634 -0.0998463
0.039115 0.990408 -0.100148
0.039574 0.989284 -0.0995833
0.040033 0.988652 -0.0997351
0.040492 0.990278 -0.099598
0.040951 0.990005 -0.100133
0.04141 0.990804 -0.100321
0.041869 0.98879 -0.0991206
0.042328 0.989825 -0.100292
0.042787 0.989964 -0.0994627
0.043246 0.989072 -0.100683
0.043705 0.989676 -0.0998447
0.044164 0.989861 -0.100432
0.044623 0.990474 -0.0992126
0.045082 0.989898 -0.100796
0.045541 0.989385 -0.099129
0.046 0.989755 -0.0998417
0.046459 0.990207 -0.098982
0.046918 0.98904 -0.0990591
0.047377 0.989059 -0.0996562
0.047836 0.989795 -0.09944
0.048295 0.989407 -0.10034
0.048754 0.990054 -0.0995441
0.049213 0.988969 -0.100948
0.049672 0.990354 -0.0993818
0.050131 0.990007 -0.100797
0.05059 0.990551 -0.0991243
0.051049 0.989755 -0.100741
0.051508 0.989407 -0.0991288
0.051967 0.989433 -0.101037
0.052426 0.990792 -0.0991892
0.052885 0.991438 -0.100387
0.053344 0.990524 -0.0985528
0.053803 0.988518 -0.100563
0.054262 0.990487 -0.100594
0.054721 0.991202 -0.0990328
0.05518 0.988851 -0.0999858
0.055639 0.990403 -0.0996276
0.056098 0.989042 -0.0999187
0.056557 0.990022 -0.0987092
0.057016 0.988455 -0.099876
0.057475 0.990413 -0.0992199
0.057934 0.989843 -0.100922
0.058393 0.989742 -0.0992813
0.058852 0.989532 -0.0997084
0.059311 0.989754 -0.0996249
0.05977 0.988837 -0.101278
0.060229 0.989901 -0.0997372
0.060688 0.989649 -0.10104
0.061147 0.989681 -0.100123
0.061606 0.99034 -0.100564
0.062065 0.990119 -0.0993321
0.062524 0.989914 -0.0998404
0.062983 0.989695 -0.100515
0.063442 0.989872 -0.0989453
0.063901 0.989431 -0.0995637
0.06436 0.990163 -0.0997889
0.064819 0.990039 -0.100073
0.065278 0.988221 -0.0983074
0.065737 0.9893 -0.100589
0.066196 0.989157 -0.0990383
0.066655 0.990383 -0.0999442
0.067114 0.990025 -0.0994229
0.067573 0.989588 -0.100129
0.068032 0.988721 -0.0995282
0.068491 0.989268 -0.100318
0.06895 0.989691 -0.0994747
0.069409 0.989856 -0.100334
0.069868 0.989505 -0.100386
0.070327 0.990223 -0.0999096
0.070786 0.990716 -0.100706
0.071245 0.990663 -0.099062
0.071704 0.990126 -0.100064
0.072163 0.989786 -0.0992284
0.072622 0.989588 -0.0994538
0.073081 0.989897 -0.098516
0.07354 0.98963 -0.0991571
0.073999 0.989029 -0.0982225
0.074458 0.989377 -0.100369
0.074917 0.989711 -0.0990047
0.075376 0.990334 -0.100318
0.075835 0.988822 -0.0998611
0.076294 0.990636 -0.0999936
0.076753 0.990014 -0.0996087
0.077212 0.990717 -0.100406
0.077671 0.98887 -0.0994286
0.07813 0.989905 -0.0998756
0.078589 0.989881 -0.10027
0.079048 0.990104 -0.0997536
0.079507 0.990727 -0.101044
0.079966 0.989855 -0.0987764
0.080425 0.990435 -0.10026
0.080884 0.990749 -0.0998366
0.081343 0.99059 -0.101025
0.081802 0.989951 -0.0984301
0.082261 0.990166 -0.100294
0.08272 0.988888 -0.0984115
0.083179 0.990721 -0.100282
0.083638 0.989839 -0.0990427
0.084097 0.990565 -0.100497
0.084556 0.989322 -0.0999625
0.085015 0.989817 -0.099418
0.085474 0.98999 -0.09997
0.085933 0.989059 -0.099849
0.086392 0.98985 -0.0998386
0.086851 0.9893 -0.0998699
0.08731 0.990828 -0.100039
0.087769 0.989289 -0.099918
0.088228 0.989691 -0.101411
0.088687 0.990493 -0.0997716
0.089146 0.989949 -0.10048
0.089605 0.990828 -0.0993527
0.090064 0.990136 -0.100333
0.090523 0.989865 -0.0990338
0.090982 0.990518 -0.100342
0.091441 0.989477 -0.0988154
0.0919 0.989315 -0.100604
0.092359 0.990177 -0.0998441
0.092818 0.990536 -0.0996573
0.093277 0.989786 -0.1003
0.093736 0.989804 -0.0996455
0.094195 0.990489 -0.100942
0.094654 0.989627 -0.0995604
0.095113 0.989768 -0.100337
0.095572 0.990254 -0.0995504
0.096031 0.989933 -0.100908
0.09649 0.989156 -0.0989498
0.096949 0.989779 -0.101199
0.097408 0.990306 -0.0996811
0.097867 0.99046 -0.100009
0.098326 0.989464 -0.0991247
0.098785 0.990623 -0.100265
0.099244 0.989739 -0.0993661
0.099703 0.989969 -0.100403
0.100162 0.98994 -0.0998232
0.100621 0.988811 -0.0999943
0.10108 0.990095 -0.100284
0.101539 0.989828 -0.100138
0.101998 0.990322 -0.101626
0.102457 0.989476 -0.102159
0.102916 0.989974 -0.101086
0.103375 0.990528 -0.102246
0.103834 0.989513 -0.103191
0.104293 0.989761 -0.103416
0.104752 0.990185 -0.103496
0.105211 0.990259 -0.104417
0.10567 0.990252 -0.104521
0.106129 0.990039 -0.104496
0.106588 0.990082 -0.105426
0.107047 0.990319 -0.104748
0.107506 0.989959 -0.105347
0.107965 0.991181 -0.106236
0.108424 0.991038 -0.106083
0.108883 0.99069 -0.107365
0.109342 0.989693 -0.106882
0.109801 0.99001 -0.10742
0.11026 0.990142 -0.107185
0.110719 0.990489 -0.108374
0.111178 0.98991 -0.107464
0.111637 0.989957 -0.108528
0.112096 0.990823 -0.109599
0.112555 0.990659 -0.10888
0.113014 0.990167 -0.109789
0.113473 0.990794 -0.109943
0.113932 0.990144 -0.110468
0.114391 0.990569 -0.110519
0.11485 0.991073 -0.110612
0.115309 0.991156 -0.11139
0.115768 0.990701 -0.11169
0.116227 0.99112 -0.112889
0.116686 0.990754 -0.111587
0.117145 0.99155 -0.113299
0.117604 0.990926 -0.113495
0.118063 0.991059 -0.113166
0.118522 0.990147 -0.113577
0.118981 0.990443 -0.113907
0.11944 0.990872 -0.114014
0.119899 0.990787 -0.114951
0.120358 0.990704 -0.115954
0.120817 0.989644 -0.115875
0.121276 0.990808 -0.115722
0.121735 0.99093 -0.117147
0.122194 0.991055 -0.116333
0.122653 0.99114 -0.117034
0.123112 0.990718 -0.118018
0.123571 0.991476 -0.118551
0.12403 0.992103 -0.118004
0.124489 0.991769 -0.118369
0.124948 0.99152 -0.118593
0.125407 0.992637 -0.119706
0.125866 0.991311 -0.119596
0.126325 0.991887 -0.120195
0.126784 0.991864 -0.119928
0.127243 0.991604 -0.12098
0.127702 0.991407 -0.121654
0.128161 0.991519 -0.121098
0.12862 0.990973 -0.122264
0.129079 0.991525 -0.123049
0.129538 0.991077 -0.12236
0.129997 0.991189 -0.122663
0.130456 0.991207 -0.123264
0.130915 0.991718 -0.122948
0.131374 0.991597 -0.124458
0.131833 0.992063 -0.12446
0.132292 0.991793 -0.124799
0.132751 0.992119 -0.125302
0.13321 0.992085 -0.125264
0.133669 0.99207 -0.125686
0.134128 0.992029 -0.126008
0.134587 0.992027 -0.126028
0.135046 0.991796 -0.126716
0.135505 0.991733 -0.126332
0.135964 0.991876 -0.127208
0.136423 0.991744 -0.128232
0.136882 0.991645 -0.128154
0.137341 0.991792 -0.127861
0.1378 0.991617 -0.129212
0.138259 0.991182 -0.129389
0.138718 0.991548 -0.129737
0.139177 0.991221 -0.130404
0.139636 0.991516 -0.129988
0.140095 0.991529 -0.129885
0.140554 0.991374 -0.131061
0.141013 0.99122 -0.132221
0.141472 0.991237 -0.132092
0.141931 0.991165 -0.132636
0.14239 0.991198 -0.132385
0.142849 0.991187 -0.132469
0.143308 0.991104 -0.133086
0.143767 0.991117 -0.132989
0.144226 0.991117 -0.132995
0.144685 0.991062 -0.133401
0.145144 0.990971 -0.134076
0.145603 0.990953 -0.134212
0.146062 0.990859 -0.134899
0.146521 0.990901 -0.134595
0.14698 0.990602 -0.136777
0.147439 0.99065 -0.136426
0.147898 0.990743 -0.135753
0.148357 0.990572 -0.136995
0.148816 0.990643 -0.136476
0.149275 0.990516 -0.137394
0.149734 0.990461 -0.137796
0.150193 0.990513 -0.137421
0.150652 0.990279 -0.139093
0.151111 0.990217 -0.139535
0.15157 0.990359 -0.138527
0.152029 0.990145 -0.140047
0.152488 0.99022 -0.139512
0.152947 0.990196 -0.139684
0.153406 0.99009 -0.140434
0.153865 0.990055 -0.140682
0.154324 0.990036 -0.140812
0.154783 0.990052 -0.140703
0.155242 0.990034 -0.140828
0.155701 0.989799 -0.14247
0.15616 0.989803 -0.14244
0.156619 0.989856 -0.142074
0.157078 0.9896 -0.143845
0.157537 0.989623 -0.143686
0.157996 0.989522 -0.144384
0.158455 0.989524 -0.144369
0.158914 0.989393 -0.145264
0.159373 0.989569 -0.144057
0.159832 0.989447 -0.144898
0.160291 0.989372 -0.145409
0.16075 0.989321 -0.145755
0.161209 0.98924 -0.1463
0.161668 0.989173 -0.146755
0.162127 0.989198 -0.146588
0.162586 0.98921 -0.146502
0.163045 0.988999 -0.147923
0.163504 0.988925 -0.148414
0.163963 0.989025 -0.147747
0.164422 0.988884 -0.14869
0.164881 0.988874 -0.148759
0.16534 0.988701 -0.149903
0.165799 0.988735 -0.149675
0.166258 0.988646 -0.150263
0.166717 0.988746 -0.149606
0.167176 0.988719 -0.149782
0.167635 0.988442 -0.1516
0.168094 0.988572 -0.150752
0.168553 0.988402 -0.151858
0.169012 0.988407 -0.151826
0.169471 0.988254 -0.152823
0.16993 0.988282 -0.152637
0.170389 0.988317 -0.152415
0.170848 0.988333 -0.152309
0.171307 0.988078 -0.153955
0.171766 0.988137 -0.153574
0.172225 0.988053 -0.154113
0.172684 0.988075 -0.153971
0.173143 0.987847 -0.155429
0.173602 0.987785 -0.155822
0.174061 0.987844 -0.155451
0.17452 0.987738 -0.156121
0.174979 0.987623 -0.156847
0.175438 0.987614 -0.156903
0.175897 0.987655 -0.156644
0.176356 0.987605 -0.156957
0.176815 0.987414 -0.158158
0.177274 0.987238 -0.159252
0.177733 0.987475 -0.157776
0.178192 0.987283 -0.158975
0.178651 0.987014 -0.160634
0.17911 0.987311 -0.158799
0.179569 0.987281 -0.158985
0.180028 0.987054 -0.160386
0.180487 0.986986 -0.160806
0.180946 0.987151 -0.15979
0.181405 0.98697 -0.160904
0.181864 0.986983 -0.160824
0.182323 0.986721 -0.162423
0.182782 0.986722 -0.16242
0.183241 0.986551 -0.163456
0.1837 0.986642 -0.162906
0.184159 0.986703 -0.162535
0.184618 0.986471 -0.163935
0.185077 0.986464 -0.163981
0.185536 0.986315 -0.164872
0.185995 0.986333 -0.164767
0.186454 0.98646 -0.164
0.186913 0.986084 -0.16625
0.187372 0.985939 -0.167107
0.187831 0.986149 -0.165863
0.18829 0.986169 -0.165741
0.188749 0.986108 -0.166107
0.189208 0.985902 -0.167324
0.189667 0.986215 -0.165468
0.190126 0.985865 -0.167541
0.190585 0.98578 -0.168039
0.191044 0.985805 -0.167896
0.191503 0.985725 -0.168362
0.191962 0.985601 -0.169085
0.192421 0.985567 -0.169284
0.19288 0.985606 -0.16906
0.193339 0.985391 -0.170306
0.193798 0.985328 -0.170669
0.194257 0.98542 -0.170142
0.194716 0.984923 -0.172996
0.195175 0.985204 -0.171384
0.195634 0.985127 -0.171828
0.196093 0.984838 -0.173476
0.196552 0.985003 -0.17254
0.197011 0.985161 -0.171632
0.19747 0.984868 -0.173308
0.197929 0.984844 -0.173443
0.198388 0.984752 -0.173967
0.198847 0.984649 -0.174548
0.199306 0.984639 -0.174603
0.199765 0.984459 -0.175616
0.200224 0.98463 -0.174651
0.200683 0.984862 -0.173341
0.201142 0.984584 -0.174915
0.201601 0.984197 -0.177078
0.20206 0.984445 -0.175695
0.202519 0.98428 -0.176613
0.202978 0.984164 -0.177262
0.203437 0.984233 -0.176879
0.203896 0.984083 -0.177712
0.204355 0.983864 -0.17892
0.204814 0.983973 -0.178315
0.205273 0.983622 -0.180244
0.205732 0.98369 -0.179871
0.206191 0.983952 -0.178432
0.20665 0.983865 -0.17891
0.207109 0.983656 -0.180061
0.207568 0.983375 -0.181585
0.208027 0.983305 -0.181965
0.208486 0.983394 -0.181483
0.208945 0.983324 -0.181863
0.209404 0.983307 -0.181955
0.209863 0.983154 -0.182779
0.210322 0.982991 -0.183654
0.210781 0.983431 -0.181284
0.21124 0.982968 -0.183778
0.211699 0.982899 -0.184144
0.212158 0.982863 -0.184339
0.212617 0.98255 -0.185998
0.213076 0.982873 -0.184285
0.213535 0.982603 -0.18572
0.213994 0.982621 -0.185625
0.214453 0.9825 -0.186262
0.214912 0.98249 -0.186314
0.215371 0.982514 -0.186187
0.21583 0.982378 -0.186904
0.216289 0.982257 -0.18754
0.216748 0.982229 -0.187686
0.217207 0.982045 -0.188648
0.217666 0.982236 -0.187651
0.218125 0.982057 -0.188584
0.218584 0.981927 -0.18926
0.219043 0.98204 -0.188672
0.219502 0.981727 -0.190295
0.219961 0.981834 -0.189744
0.22042 0.981952 -0.189132
0.220879 0.981507 -0.191428
0.221338 0.981239 -0.192795
0.221797 0.981367 -0.192142
0.222256 0.981411 -0.191915
0.222715 0.981554 -0.191185
0.223174 0.980967 -0.194174
0.223633 0.981436 -0.191791
0.224092 0.981357 -0.192193
0.224551 0.981222 -0.192883
0.22501 0.981114 -0.19343
0.225469 0.981179 -0.193101
0.225928 0.98112 -0.193401
0.226387 0.980881 -0.194608
0.226846 0.980882 -0.194601
0.227305 0.980567 -0.196185
0.227764 0.980553 -0.196254
0.228223 0.980616 -0.195941
0.228682 0.980637 -0.195835
0.229141 0.9806 -0.196021
0.2296 0.98042 -0.196916
