! Touchstone file generated by AntScope2 (calibration data)
# MHz S RI R 50
! Format: Frequency S-real S-imaginary (normalized to 50 Ohm)
0.0001 0.989605 -0.0971299
0.000559 0.991329 -0.0882363
0.001018 0.990333 -0.0993655
0.001477 0.989821 -0.0986867
0.001936 0.989703 -0.0987123
0.002395 0.989715 -0.0990755
0.002854 0.989901 -0.100529
0.003313 0.989811 -0.0990723
0.003772 0.990171 -0.100542
0.004231 0.98841 -0.0987853
0.00469 0.987767 -0.0993696
0.005149 0.988805 -0.0986557
0.005608 0.989614 -0.101233
0.006067 0.989261 -0.0997654
0.006526 0.989929 -0.0996332
0.006985 0.99011 -0.0988426
0.007444 0.989888 -0.100142
0.007903 0.990039 -0.100507
0.008362 0.990429 -0.0997695
0.008821 0.990903 -0.0994547
0.00928 0.9906 -0.0992156
0.009739 0.989871 -0.100132
0.010198 0.989646 -0.0986742
0.010657 0.989294 -0.100102
0.011116 0.989425 -0.0984358
0.011575 0.989032 -0.100064
0.012034 0.989199 -0.0986125
0.012493 0.990141 -0.100653
0.012952 0.989434 -0.0990166
0.013411 0.989742 -0.100225
0.01387 0.98975 -0.0993134
0.014329 0.989849 -0.0998589
0.014788 0.988929 -0.0992013
0.015247 0.989853 -0.0995481
0.015706 0.989501 -0.099371
0.016165 0.989768 -0.0998155
0.016624 0.989857 -0.0992593
0.017083 0.990168 -0.0986184
0.017542 0.989821 -0.099607
0.018001 0.989517 -0.0989797
0.01846 0.989523 -0.100455
0.018919 0.990366 -0.099054
0.019378 0.989094 -0.100399
0.019837 0.989199 -0.0985994
0.020296 0.989652 -0.100187
0.020755 0.989506 -0.0982273
0.021214 0.989857 -0.0997589
0.021673 0.989932 -0.098736
0.022132 0.989258 -0.100503
0.022591 0.989214 -0.0997356
0.02305 0.990309 -0.100181
0.023509 0.989248 -0.1001
0.023968 0.989379 -0.0988569
0.024427 0.98919 -0.100809
0.024886 0.98979 -0.0994533
0.025345 0.989923 -0.101172
0.025804 0.9899 -0.0994393
0.026263 0.990642 -0.100758
0.026722 0.990494 -0.0993248
0.027181 0.990763 -0.100458
0.02764 0.98963 -0.0984949
0.028099 0.989692 -0.100055
0.028558 0.989018 -0.0985285
0.029017 0.989571 -0.099685
0.029476 0.989133 -0.0986916
0.029935 0.989487 -0.0996044
0.030394 0.989795 -0.0993341
0.030853 0.989969 -0.0995903
0.031312 0.989113 -0.0993366
0.031771 0.990341 -0.0990117
0.03223 0.990036 -0.0995559
0.032689 0.989739 -0.0990896
0.033148 0.989604 -0.100688
0.033607 0.989505 -0.0994116
0.034066 0.989842 -0.0999265
0.034525 0.989734 -0.098541
0.034984 0.989278 -0.100355
0.035443 0.989707 -0.0988694
0.035902 0.990008 -0.0999716
0.036361 0.990181 -0.098638
0.03682 0.98955 -0.0997153
0.037279 0.98987 -0.0991788
0.037738 0.990048 -0.0995092
0.038197 0.989336 -0.0996265
0.038656 0.990024 -0.0991789
0.039115 0.989598 -0.0996886
0.039574 0.989677 -0.0993695
0.040033 0.989514 -0.100152
0.040492 0.989205 -0.0986147
0.040951 0.989725 -0.101046
0.04141 0.989265 -0.0988066
0.041869 0.990045 -0.100949
0.042328 0.989528 -0.0995927
0.042787 0.990338 -0.100652
0.043246 0.990498 -0.099541
0.043705 0.990169 -0.100991
0.044164 0.989694 -0.0993517
0.044623 0.989753 -0.100088
0.045082 0.989983 -0.098686
0.045541 0.989521 -0.0997803
0.046 0.989314 -0.0997574
0.046459 0.98937 -0.0997539
0.046918 0.990305 -0.100361
0.047377 0.989731 -0.0993359
0.047836 0.989496 -0.0996002
0.048295 0.988918 -0.0991061
0.048754 0.989951 -0.100662
0.049213 0.990017 -0.0992302
0.049672 0.990543 -0.101103
0.050131 0.990304 -0.0987901
0.05059 0.989327 -0.100382
0.051049 0.989503 -0.099767
0.051508 0.989721 -0.101047
0.051967 0.989917 -0.0995736
0.052426 0.990233 -0.0998521
0.052885 0.989877 -0.0993133
0.053344 0.989842 -0.100656
0.053803 0.990376 -0.0990631
0.054262 0.989948 -0.09976
0.054721 0.989079 -0.0996842
0.05518 0.989618 -0.0984985
0.055639 0.98899 -0.100206
0.056098 0.989562 -0.0997363
0.056557 0.988807 -0.0999374
0.057016 0.988965 -0.0991565
0.057475 0.989436 -0.100923
0.057934 0.989453 -0.0988335
0.058393 0.989383 -0.100668
0.058852 0.989642 -0.0990622
0.059311 0.989746 -0.10013
0.05977 0.989971 -0.0992351
0.060229 0.989552 -0.100813
0.060688 0.989902 -0.0994377
0.061147 0.990687 -0.100839
0.061606 0.990091 -0.0994526
0.062065 0.989339 -0.0995551
0.062524 0.990029 -0.100249
0.062983 0.989954 -0.0992825
0.063442 0.989858 -0.100389
0.063901 0.989701 -0.0985512
0.06436 0.989789 -0.0998714
0.064819 0.988925 -0.098032
0.065278 0.990426 -0.10011
0.065737 0.990101 -0.098032
0.066196 0.989352 -0.0994616
0.066655 0.990015 -0.099239
0.067114 0.989101 -0.0990219
0.067573 0.990179 -0.0991099
0.068032 0.990138 -0.0996071
0.068491 0.989973 -0.100044
0.06895 0.989848 -0.0999267
0.069409 0.990274 -0.0998951
0.069868 0.989403 -0.0998188
0.070327 0.99088 -0.0993825
0.070786 0.989871 -0.0989986
0.071245 0.990139 -0.10053
0.071704 0.989515 -0.0989197
0.072163 0.989213 -0.100875
0.072622 0.990072 -0.0981489
0.073081 0.990013 -0.100794
0.07354 0.989547 -0.0995444
0.073999 0.989824 -0.10056
0.074458 0.989698 -0.0994618
0.074917 0.989383 -0.100757
0.075376 0.989703 -0.0995313
0.075835 0.989913 -0.099873
0.076294 0.990475 -0.100335
0.076753 0.990971 -0.0996614
0.077212 0.991063 -0.100369
0.077671 0.990183 -0.100673
0.07813 0.989791 -0.100222
0.078589 0.989847 -0.0994927
0.079048 0.989463 -0.101147
0.079507 0.990597 -0.0987148
0.079966 0.990287 -0.100563
0.080425 0.99023 -0.0984619
0.080884 0.989654 -0.0999246
0.081343 0.990367 -0.0975319
0.081802 0.990303 -0.0998598
0.082261 0.989408 -0.0994768
0.08272 0.988927 -0.0992734
0.083179 0.989869 -0.0991919
0.083638 0.989259 -0.0991697
0.084097 0.989608 -0.0978376
0.084556 0.990851 -0.0994979
0.085015 0.988462 -0.0976485
0.085474 0.990162 -0.0981782
0.085933 0.990541 -0.100396
0.086392 0.990519 -0.100167
0.086851 0.990936 -0.100634
0.08731 0.990857 -0.0988612
0.087769 0.98964 -0.101406
0.088228 0.990456 -0.0983392
0.088687 0.989617 -0.101003
0.089146 0.989483 -0.0983242
0.089605 0.990129 -0.10155
0.090064 0.989946 -0.0988103
0.090523 0.989547 -0.100257
0.090982 0.989233 -0.0965384
0.091441 0.988862 -0.100484
0.0919 0.989416 -0.102639
0.092359 0.989974 -0.102375
0.092818 0.99041 -0.100149
0.093277 0.990939 -0.100262
0.093736 0.989443 -0.100292
0.094195 0.990382 -0.100025
0.094654 0.989822 -0.100811
0.095113 0.989823 -0.097904
0.095572 0.990702 -0.100864
0.096031 0.990002 -0.0995499
0.09649 0.991035 -0.0999301
0.096949 0.990957 -0.097329
0.097408 0.990421 -0.100184
0.097867 0.990127 -0.098599
0.098326 0.989796 -0.098974
0.098785 0.990238 -0.0991297
0.099244 0.990326 -0.0999073
0.099703 0.989871 -0.102334
0.100162 0.989518 -0.102781
0.100621 0.989621 -0.0997734
0.10108 0.990139 -0.102449
0.101539 0.989674 -0.100296
0.101998 0.989876 -0.101889
0.102457 0.989664 -0.101271
0.102916 0.989922 -0.101732
0.103375 0.989525 -0.10227
0.103834 0.990322 -0.103559
0.104293 0.988649 -0.101603
0.104752 0.991548 -0.103287
0.105211 0.988825 -0.105637
0.10567 0.989962 -0.103704
0.106129 0.990235 -0.10416
0.106588 0.990257 -0.104721
0.107047 0.990744 -0.104671
0.107506 0.99079 -0.104798
0.107965 0.990653 -0.104797
0.108424 0.990406 -0.108
0.108883 0.990301 -0.106554
0.109342 0.989634 -0.106907
0.109801 0.990546 -0.107213
0.11026 0.990275 -0.10725
0.110719 0.989915 -0.108781
0.111178 0.990069 -0.108836
0.111637 0.990982 -0.108685
0.112096 0.99034 -0.108735
0.112555 0.991047 -0.109426
0.113014 0.991064 -0.110353
0.113473 0.990048 -0.110633
0.113932 0.993072 -0.10969
0.114391 0.992133 -0.110985
0.11485 0.990803 -0.11083
0.115309 0.990199 -0.112183
0.115768 0.990753 -0.111501
0.116227 0.990509 -0.112546
0.116686 0.990994 -0.113491
0.117145 0.990458 -0.113721
0.117604 0.990716 -0.116773
0.118063 0.990167 -0.113938
0.118522 0.9905 -0.114189
0.118981 0.990716 -0.112157
0.11944 0.990182 -0.112045
0.119899 0.990522 -0.117005
0.120358 0.991035 -0.11653
0.120817 0.991405 -0.115164
0.121276 0.990604 -0.114865
0.121735 0.992441 -0.118212
0.122194 0.99091 -0.116708
0.122653 0.991544 -0.117529
0.123112 0.990464 -0.118196
0.123571 0.990567 -0.117385
0.12403 0.992029 -0.118391
0.124489 0.992255 -0.117539
0.124948 0.991179 -0.118435
0.125407 0.990731 -0.119395
0.125866 0.991102 -0.118328
0.126325 0.991881 -0.118947
0.126784 0.991249 -0.119423
0.127243 0.991317 -0.119675
0.127702 0.991131 -0.121116
0.128161 0.990976 -0.121236
0.12862 0.991338 -0.1212
0.129079 0.991641 -0.122239
0.129538 0.991173 -0.122393
0.129997 0.990427 -0.121306
0.130456 0.991981 -0.123589
0.130915 0.991313 -0.123122
0.131374 0.992215 -0.123587
0.131833 0.992215 -0.124534
0.132292 0.991431 -0.125238
0.132751 0.991842 -0.124684
0.13321 0.99171 -0.12571
0.133669 0.991774 -0.125788
0.134128 0.991983 -0.125233
0.134587 0.991932 -0.126771
0.135046 0.991921 -0.126289
0.135505 0.99192 -0.126589
0.135964 0.991806 -0.126269
0.136423 0.991805 -0.127762
0.136882 0.991771 -0.128026
0.137341 0.991799 -0.127807
0.1378 0.99132 -0.128287
0.138259 0.991694 -0.128618
0.138718 0.991645 -0.128996
0.139177 0.991656 -0.128911
0.139636 0.991486 -0.130212
0.140095 0.991607 -0.129287
0.140554 0.991418 -0.130732
0.141013 0.991244 -0.13204
0.141472 0.991308 -0.131564
0.141931 0.991099 -0.133129
0.14239 0.991359 -0.13118
0.142849 0.991201 -0.132362
0.143308 0.991161 -0.132666
0.143767 0.991175 -0.132561
0.144226 0.991142 -0.132805
0.144685 0.991089 -0.133203
0.145144 0.991001 -0.133856
0.145603 0.990938 -0.134318
0.146062 0.990816 -0.135218
0.146521 0.990789 -0.135415
0.14698 0.990806 -0.135289
0.147439 0.990661 -0.13635
0.147898 0.990593 -0.136844
0.148357 0.990571 -0.137001
0.148816 0.990534 -0.137267
0.149275 0.990505 -0.137475
0.149734 0.990489 -0.13759
0.150193 0.990527 -0.137316
0.150652 0.990471 -0.137722
0.151111 0.990272 -0.139145
0.15157 0.990362 -0.138502
0.152029 0.99034 -0.138663
0.152488 0.990127 -0.140175
0.152947 0.990236 -0.139398
0.153406 0.99026 -0.13923
0.153865 0.989985 -0.141174
0.154324 0.989933 -0.14154
0.154783 0.989907 -0.141717
0.155242 0.990034 -0.14083
0.155701 0.98985 -0.142114
0.15616 0.989985 -0.141176
0.156619 0.989883 -0.141889
0.157078 0.989705 -0.143126
0.157537 0.989655 -0.143465
0.157996 0.989559 -0.144125
0.158455 0.989482 -0.144658
0.158914 0.989509 -0.144471
0.159373 0.98949 -0.1446
0.159832 0.989412 -0.145132
0.160291 0.989422 -0.145063
0.16075 0.989391 -0.145277
0.161209 0.989417 -0.145101
0.161668 0.989253 -0.146211
0.162127 0.989283 -0.146009
0.162586 0.989075 -0.147413
0.163045 0.989157 -0.14686
0.163504 0.989015 -0.147814
0.163963 0.988956 -0.148206
0.164422 0.988799 -0.149253
0.164881 0.988767 -0.149464
0.16534 0.98872 -0.149776
0.165799 0.988829 -0.149056
0.166258 0.988712 -0.149829
0.166717 0.988515 -0.151126
0.167176 0.988492 -0.151274
0.167635 0.988529 -0.151028
0.168094 0.988537 -0.150978
0.168553 0.98848 -0.151351
0.169012 0.988313 -0.152441
0.169471 0.988398 -0.151884
0.16993 0.988278 -0.152667
0.170389 0.988363 -0.152111
0.170848 0.988328 -0.152344
0.171307 0.988113 -0.153726
0.171766 0.988131 -0.153614
0.172225 0.988054 -0.15411
0.172684 0.98788 -0.155221
0.173143 0.98792 -0.154967
0.173602 0.987932 -0.154891
0.174061 0.987827 -0.155557
0.17452 0.987674 -0.156527
0.174979 0.987742 -0.156097
0.175438 0.987543 -0.157347
0.175897 0.987566 -0.157202
0.176356 0.987524 -0.15747
0.176815 0.987447 -0.157952
0.177274 0.987363 -0.158474
0.177733 0.98742 -0.158118
0.178192 0.987273 -0.159035
0.178651 0.987308 -0.158814
0.17911 0.987171 -0.159669
0.179569 0.987185 -0.159577
0.180028 0.987172 -0.159661
0.180487 0.986989 -0.160791
0.180946 0.986885 -0.161425
0.181405 0.986978 -0.160855
0.181864 0.986836 -0.161726
0.182323 0.986711 -0.162483
0.182782 0.986747 -0.162268
0.183241 0.986695 -0.16258
0.1837 0.986755 -0.162216
0.184159 0.986494 -0.163797
0.184618 0.986495 -0.163789
0.185077 0.986441 -0.164117
0.185536 0.98634 -0.164724
0.185995 0.986347 -0.164678
0.186454 0.986162 -0.165784
0.186913 0.986161 -0.165792
0.187372 0.986237 -0.165338
0.187831 0.986132 -0.165962
0.18829 0.986278 -0.165094
0.188749 0.98592 -0.167218
0.189208 0.98585 -0.16763
0.189667 0.985867 -0.167527
0.190126 0.985963 -0.166963
0.190585 0.985797 -0.167941
0.191044 0.985844 -0.167664
0.191503 0.985631 -0.168915
0.191962 0.985572 -0.169259
0.192421 0.98542 -0.170142
0.19288 0.985491 -0.169726
0.193339 0.985347 -0.170562
0.193798 0.985363 -0.170467
0.194257 0.985195 -0.171439
0.194716 0.985359 -0.170493
0.195175 0.98516 -0.17164
0.195634 0.985161 -0.171635
0.196093 0.9851 -0.171983
0.196552 0.984916 -0.173032
0.197011 0.985013 -0.172481
0.19747 0.984862 -0.173341
0.197929 0.984858 -0.173365
0.198388 0.984844 -0.17344
0.198847 0.984729 -0.174096
0.199306 0.984789 -0.173757
0.199765 0.984595 -0.174848
0.200224 0.984403 -0.175928
0.200683 0.98439 -0.176002
0.201142 0.98434 -0.176279
0.201601 0.984495 -0.175414
0.20206 0.984239 -0.176845
0.202519 0.98415 -0.17734
0.202978 0.984188 -0.177128
0.203437 0.984129 -0.177452
0.203896 0.983915 -0.178638
0.204355 0.983915 -0.178635
0.204814 0.983895 -0.178749
0.205273 0.983918 -0.178622
0.205732 0.983845 -0.179025
0.206191 0.983832 -0.179092
0.20665 0.983661 -0.180032
0.207109 0.983601 -0.180357
0.207568 0.983604 -0.180341
0.208027 0.983547 -0.180654
0.208486 0.983317 -0.181902
0.208945 0.983419 -0.181349
0.209404 0.983292 -0.182037
0.209863 0.983249 -0.182267
0.210322 0.983253 -0.182244
0.210781 0.982948 -0.183885
0.21124 0.982925 -0.184006
0.211699 0.982939 -0.183932
0.212158 0.982933 -0.183963
0.212617 0.98288 -0.184245
0.213076 0.982697 -0.185223
0.213535 0.982682 -0.185297
0.213994 0.982531 -0.186097
0.214453 0.982622 -0.185618
0.214912 0.982435 -0.186603
0.215371 0.982546 -0.186018
0.21583 0.982302 -0.187303
0.216289 0.982422 -0.186676
0.216748 0.982433 -0.186614
0.217207 0.982278 -0.187428
0.217666 0.98215 -0.188099
0.218125 0.98211 -0.18831
0.218584 0.981995 -0.188909
0.219043 0.981821 -0.189811
0.219502 0.981914 -0.189327
0.219961 0.981798 -0.189926
0.22042 0.981551 -0.191203
0.220879 0.98171 -0.190381
0.221338 0.981675 -0.19056
0.221797 0.981594 -0.190979
0.222256 0.981498 -0.191471
0.222715 0.981522 -0.191352
0.223174 0.981331 -0.192329
0.223633 0.981288 -0.192545
0.224092 0.981312 -0.192424
0.224551 0.981346 -0.192248
0.22501 0.981148 -0.193256
0.225469 0.981018 -0.193917
0.225928 0.980932 -0.19435
0.226387 0.980946 -0.194279
0.226846 0.980759 -0.195222
0.227305 0.980776 -0.195135
0.227764 0.980501 -0.196513
0.228223 0.980623 -0.195903
0.228682 0.980578 -0.196128
0.229141 0.980396 -0.197039
0.2296 0.98033 -0.197366
