! Touchstone file generated by AntScope2 (calibration data)
# MHz S RI R 50
! Format: Frequency S-real S-imaginary (normalized to 50 Ohm)
0.0001 0.990103 -0.100945
0.000559 0.990568 -0.0984985
0.001018 0.990187 -0.100825
0.001477 0.990486 -0.099233
0.001936 0.989721 -0.0993869
0.002395 0.989696 -0.0998448
0.002854 0.989379 -0.0998744
0.003313 0.988726 -0.0995067
0.003772 0.989065 -0.0986996
0.004231 0.989372 -0.100393
0.00469 0.989914 -0.0999021
0.005149 0.989303 -0.100032
0.005608 0.99014 -0.0991679
0.006067 0.989865 -0.0986317
0.006526 0.989206 -0.0973004
0.006985 0.98939 -0.0998706
0.007444 0.989275 -0.0988869
0.007903 0.989872 -0.101049
0.008362 0.990277 -0.0984483
0.008821 0.990204 -0.0999368
0.00928 0.990656 -0.0989218
0.009739 0.989752 -0.0995743
0.010198 0.989558 -0.100404
0.010657 0.991212 -0.0989042
0.011116 0.989603 -0.0996794
0.011575 0.989147 -0.0986019
0.012034 0.989768 -0.100348
0.012493 0.988891 -0.0997619
0.012952 0.990103 -0.0999917
0.013411 0.988272 -0.0994837
0.01387 0.988602 -0.101262
0.014329 0.990018 -0.0982484
0.014788 0.989592 -0.100481
0.015247 0.990081 -0.0991063
0.015706 0.990083 -0.100068
0.016165 0.989934 -0.0995024
0.016624 0.989606 -0.100258
0.017083 0.989613 -0.0998512
0.017542 0.989653 -0.100204
0.018001 0.989818 -0.100953
0.01846 0.990537 -0.0995078
0.018919 0.989312 -0.10034
0.019378 0.989587 -0.0983564
0.019837 0.989995 -0.0998168
0.020296 0.989215 -0.0983727
0.020755 0.990474 -0.100054
0.021214 0.989794 -0.0990263
0.021673 0.990248 -0.100302
0.022132 0.9898 -0.0993148
0.022591 0.989723 -0.100234
0.02305 0.989498 -0.0989169
0.023509 0.990626 -0.100778
0.023968 0.989683 -0.0988624
0.024427 0.990053 -0.099887
0.024886 0.990409 -0.0992293
0.025345 0.989997 -0.0989892
0.025804 0.989775 -0.100416
0.026263 0.990181 -0.0996237
0.026722 0.990342 -0.0998448
0.027181 0.989959 -0.0994207
0.02764 0.990526 -0.100365
0.028099 0.989235 -0.0989286
0.028558 0.989653 -0.0999295
0.029017 0.990112 -0.0983073
0.029476 0.988904 -0.100537
0.029935 0.990087 -0.0981053
0.030394 0.989344 -0.10064
0.030853 0.989939 -0.0987838
0.031312 0.989389 -0.0997829
0.031771 0.989276 -0.0989306
0.03223 0.988851 -0.0993914
0.032689 0.989172 -0.100363
0.033148 0.99017 -0.0999125
0.033607 0.989585 -0.100751
0.034066 0.990455 -0.0997266
0.034525 0.99041 -0.0999699
0.034984 0.990257 -0.0995082
0.035443 0.99058 -0.101437
0.035902 0.990309 -0.0990367
0.036361 0.990798 -0.100318
0.03682 0.990196 -0.0987293
0.037279 0.990375 -0.0997999
0.037738 0.99056 -0.0991118
0.038197 0.989045 -0.0999979
0.038656 0.989684 -0.0989848
0.039115 0.989513 -0.100196
0.039574 0.989553 -0.0993791
0.040033 0.989716 -0.100359
0.040492 0.989966 -0.100609
0.040951 0.989486 -0.099372
0.04141 0.990033 -0.100819
0.041869 0.989006 -0.0992718
0.042328 0.990002 -0.0994734
0.042787 0.990248 -0.0995512
0.043246 0.990309 -0.100818
0.043705 0.990792 -0.0985601
0.044164 0.990905 -0.0995465
0.044623 0.989937 -0.0984882
0.045082 0.989965 -0.100196
0.045541 0.990388 -0.0992191
0.046 0.991342 -0.0994071
0.046459 0.98942 -0.0986407
0.046918 0.989348 -0.0994578
0.047377 0.989361 -0.09925
0.047836 0.989449 -0.0991306
0.048295 0.990218 -0.0975225
0.048754 0.989772 -0.0991502
0.049213 0.989689 -0.10079
0.049672 0.989305 -0.0993696
0.050131 0.989621 -0.100556
0.05059 0.989891 -0.0990695
0.051049 0.989976 -0.100437
0.051508 0.98972 -0.0994479
0.051967 0.989274 -0.0999302
0.052426 0.990591 -0.0993454
0.052885 0.989591 -0.101774
0.053344 0.989972 -0.0984164
0.053803 0.990442 -0.100109
0.054262 0.990831 -0.0993381
0.054721 0.99026 -0.0999479
0.05518 0.990367 -0.0998323
0.055639 0.9904 -0.0987056
0.056098 0.989188 -0.100089
0.056557 0.989772 -0.0982071
0.057016 0.98998 -0.10063
0.057475 0.990028 -0.0992101
0.057934 0.989595 -0.100608
0.058393 0.989291 -0.0980068
0.058852 0.989194 -0.100901
0.059311 0.989903 -0.0989678
0.05977 0.990012 -0.100105
0.060229 0.990139 -0.098736
0.060688 0.989868 -0.0997662
0.061147 0.989751 -0.0997791
0.061606 0.990127 -0.100526
0.062065 0.990454 -0.0991813
0.062524 0.989901 -0.0996407
0.062983 0.990888 -0.100467
0.063442 0.990255 -0.0995669
0.063901 0.990001 -0.100157
0.06436 0.989635 -0.0987453
0.064819 0.988901 -0.100108
0.065278 0.989466 -0.099435
0.065737 0.989159 -0.100035
0.066196 0.989349 -0.0992659
0.066655 0.988609 -0.100485
0.067114 0.989287 -0.0992697
0.067573 0.990453 -0.100801
0.068032 0.991075 -0.0997964
0.068491 0.990561 -0.10012
0.06895 0.989891 -0.0990827
0.069409 0.989314 -0.0997841
0.069868 0.99043 -0.100018
0.070327 0.989825 -0.0999404
0.070786 0.990096 -0.100441
0.071245 0.990161 -0.0999734
0.071704 0.990087 -0.100805
0.072163 0.989667 -0.0991364
0.072622 0.990785 -0.100045
0.073081 0.989839 -0.0992719
0.07354 0.98987 -0.100957
0.073999 0.989681 -0.0982815
0.074458 0.989778 -0.100343
0.074917 0.989882 -0.0982093
0.075376 0.990268 -0.0996706
0.075835 0.988744 -0.099584
0.076294 0.990402 -0.100174
0.076753 0.990186 -0.0992917
0.077212 0.98978 -0.0998067
0.077671 0.989641 -0.0995828
0.07813 0.989546 -0.100606
0.078589 0.989796 -0.100507
0.079048 0.989777 -0.0989044
0.079507 0.989724 -0.100892
0.079966 0.990334 -0.0993028
0.080425 0.989274 -0.100919
0.080884 0.990072 -0.0992465
0.081343 0.99007 -0.0999009
0.081802 0.990198 -0.0984843
0.082261 0.990002 -0.100098
0.08272 0.989592 -0.0990982
0.083179 0.989817 -0.0996021
0.083638 0.988706 -0.0995465
0.084097 0.990265 -0.0995525
0.084556 0.988911 -0.0991596
0.085015 0.989042 -0.0992757
0.085474 0.988835 -0.0993418
0.085933 0.990028 -0.0990783
0.086392 0.989348 -0.100251
0.086851 0.990285 -0.099032
0.08731 0.99047 -0.10064
0.087769 0.989826 -0.0985091
0.088228 0.990644 -0.100177
0.088687 0.989908 -0.099904
0.089146 0.99032 -0.0998169
0.089605 0.990335 -0.0992126
0.090064 0.990311 -0.100539
0.090523 0.990445 -0.0987495
0.090982 0.989708 -0.0998514
0.091441 0.990109 -0.0997085
0.0919 0.990038 -0.100138
0.092359 0.98959 -0.0995013
0.092818 0.989128 -0.0996178
0.093277 0.990439 -0.100257
0.093736 0.990289 -0.099895
0.094195 0.989805 -0.0993006
0.094654 0.990069 -0.0992865
0.095113 0.989251 -0.100952
0.095572 0.989769 -0.0987866
0.096031 0.990038 -0.100414
0.09649 0.990123 -0.098775
0.096949 0.990672 -0.10097
0.097408 0.990011 -0.099513
0.097867 0.99008 -0.100513
0.098326 0.990025 -0.0979658
0.098785 0.989884 -0.0997521
0.099244 0.990424 -0.0990907
0.099703 0.989464 -0.0990568
0.100162 0.989775 -0.100315
0.100621 0.989681 -0.099746
0.10108 0.989316 -0.1006
0.101539 0.98927 -0.100402
0.101998 0.989443 -0.101479
0.102457 0.99061 -0.102273
0.102916 0.990284 -0.102362
0.103375 0.989901 -0.102308
0.103834 0.989041 -0.102799
0.104293 0.98959 -0.103752
0.104752 0.990543 -0.103027
0.105211 0.990535 -0.103852
0.10567 0.989913 -0.104763
0.106129 0.990148 -0.104531
0.106588 0.99054 -0.104054
0.107047 0.990552 -0.105392
0.107506 0.991056 -0.105831
0.107965 0.990701 -0.106428
0.108424 0.990569 -0.106621
0.108883 0.990722 -0.106589
0.109342 0.989823 -0.105951
0.109801 0.989472 -0.10617
0.11026 0.989899 -0.106925
0.110719 0.990713 -0.108372
0.111178 0.99073 -0.108415
0.111637 0.990031 -0.108575
0.112096 0.989846 -0.108941
0.112555 0.990465 -0.109407
0.113014 0.990617 -0.109796
0.113473 0.990583 -0.109345
0.113932 0.991043 -0.110552
0.114391 0.990063 -0.111373
0.11485 0.991002 -0.11082
0.115309 0.99075 -0.110847
0.115768 0.991105 -0.111551
0.116227 0.991853 -0.112543
0.116686 0.990988 -0.112166
0.117145 0.9907 -0.112917
0.117604 0.991468 -0.113224
0.118063 0.991034 -0.112635
0.118522 0.990001 -0.113221
0.118981 0.991193 -0.113121
0.11944 0.990621 -0.113945
0.119899 0.990505 -0.114728
0.120358 0.989656 -0.115376
0.120817 0.990493 -0.116224
0.121276 0.991333 -0.116173
0.121735 0.991048 -0.11651
0.122194 0.990675 -0.116999
0.122653 0.991223 -0.117998
0.123112 0.991438 -0.117346
0.123571 0.990965 -0.117966
0.12403 0.991877 -0.118983
0.124489 0.991577 -0.118145
0.124948 0.992197 -0.118358
0.125407 0.991453 -0.119852
0.125866 0.992137 -0.119724
0.126325 0.991682 -0.119791
0.126784 0.991428 -0.119617
0.127243 0.991252 -0.119358
0.127702 0.990973 -0.12044
0.128161 0.990897 -0.1214
0.12862 0.991594 -0.122033
0.129079 0.991147 -0.121534
0.129538 0.991271 -0.121217
0.129997 0.991785 -0.122453
0.130456 0.991679 -0.12284
0.130915 0.991626 -0.123149
0.131374 0.991416 -0.123093
0.131833 0.991426 -0.124516
0.132292 0.992231 -0.124409
0.132751 0.991202 -0.124496
0.13321 0.991683 -0.125113
0.133669 0.991621 -0.125195
0.134128 0.991721 -0.125874
0.134587 0.991758 -0.125891
0.135046 0.991726 -0.126683
0.135505 0.991813 -0.127698
0.135964 0.991918 -0.126651
0.136423 0.990896 -0.127509
0.136882 0.991708 -0.128514
0.137341 0.991266 -0.128587
0.1378 0.991717 -0.128442
0.138259 0.991605 -0.1292
0.138718 0.991613 -0.12924
0.139177 0.991625 -0.129154
0.139636 0.991455 -0.13045
0.140095 0.991462 -0.130262
0.140554 0.991395 -0.130908
0.141013 0.991341 -0.131312
0.141472 0.991242 -0.132059
0.141931 0.991177 -0.132544
0.14239 0.99117 -0.1326
0.142849 0.991104 -0.13309
0.143308 0.991162 -0.132659
0.143767 0.991049 -0.1335
0.144226 0.991125 -0.13293
0.144685 0.991103 -0.133099
0.145144 0.990974 -0.134052
0.145603 0.990968 -0.134097
0.146062 0.990976 -0.134042
0.146521 0.990828 -0.135129
0.14698 0.990762 -0.135612
0.147439 0.990864 -0.134866
0.147898 0.990688 -0.136153
0.148357 0.990568 -0.137025
0.148816 0.990656 -0.136386
0.149275 0.990502 -0.137496
0.149734 0.990445 -0.137906
0.150193 0.990367 -0.138466
0.150652 0.990256 -0.139261
0.151111 0.990367 -0.138464
0.15157 0.99031 -0.138878
0.152029 0.990167 -0.139889
0.152488 0.990248 -0.139318
0.152947 0.990257 -0.139253
0.153406 0.990185 -0.139764
0.153865 0.990113 -0.140269
0.154324 0.990017 -0.140946
0.154783 0.989925 -0.141595
0.155242 0.98996 -0.141348
0.155701 0.98983 -0.142257
0.15616 0.989804 -0.142436
0.156619 0.989741 -0.142871
0.157078 0.989768 -0.142689
0.157537 0.989735 -0.142918
0.157996 0.98955 -0.144191
0.158455 0.989527 -0.144349
0.158914 0.989445 -0.144906
0.159373 0.989489 -0.144608
0.159832 0.98939 -0.145287
0.160291 0.989315 -0.145797
0.16075 0.98931 -0.145827
0.161209 0.989356 -0.145519
0.161668 0.989111 -0.147171
0.162127 0.9892 -0.146573
0.162586 0.989071 -0.147441
0.163045 0.988943 -0.148296
0.163504 0.989034 -0.147686
0.163963 0.988954 -0.148226
0.164422 0.988948 -0.148261
0.164881 0.98876 -0.149511
0.16534 0.988822 -0.149101
0.165799 0.988713 -0.149822
0.166258 0.988672 -0.150093
0.166717 0.988621 -0.15043
0.167176 0.98862 -0.150434
0.167635 0.988411 -0.151801
0.168094 0.98843 -0.151677
0.168553 0.9884 -0.151872
0.169012 0.988336 -0.152291
0.169471 0.988362 -0.15212
0.16993 0.988291 -0.152579
0.170389 0.988285 -0.152619
0.170848 0.988222 -0.15303
0.171307 0.988225 -0.153009
0.171766 0.988068 -0.154016
0.172225 0.988032 -0.154247
0.172684 0.987945 -0.154805
0.173143 0.987946 -0.154798
0.173602 0.987919 -0.154972
0.174061 0.987809 -0.155672
0.17452 0.987883 -0.155201
0.174979 0.987764 -0.155954
0.175438 0.987665 -0.156583
0.175897 0.98755 -0.157303
0.176356 0.987428 -0.158069
0.176815 0.987363 -0.158477
0.177274 0.987453 -0.157912
0.177733 0.987396 -0.15827
0.178192 0.987334 -0.158654
0.178651 0.987257 -0.159133
0.17911 0.987198 -0.159499
0.179569 0.987198 -0.159502
0.180028 0.987125 -0.15995
0.180487 0.987126 -0.159945
0.180946 0.986913 -0.161254
0.181405 0.986914 -0.161247
0.181864 0.986834 -0.161739
0.182323 0.986837 -0.161718
0.182782 0.986698 -0.162564
0.183241 0.986829 -0.161765
0.1837 0.986655 -0.162825
0.184159 0.986647 -0.162875
0.184618 0.986495 -0.163794
0.185077 0.986426 -0.164208
0.185536 0.986427 -0.164197
0.185995 0.986452 -0.164053
0.186454 0.986224 -0.165417
0.186913 0.98641 -0.164302
0.187372 0.986227 -0.1654
0.187831 0.986174 -0.165716
0.18829 0.986165 -0.165768
0.188749 0.98608 -0.166274
0.189208 0.986104 -0.166129
0.189667 0.98597 -0.166922
0.190126 0.98581 -0.167862
0.190585 0.985854 -0.167608
0.191044 0.985732 -0.168325
0.191503 0.985684 -0.168604
0.191962 0.985652 -0.168791
0.192421 0.985705 -0.168483
0.19288 0.985429 -0.170084
0.193339 0.985531 -0.169495
0.193798 0.985334 -0.170638
0.194257 0.985274 -0.170982
0.194716 0.985276 -0.170971
0.195175 0.985205 -0.171381
0.195634 0.98508 -0.172095
0.196093 0.98508 -0.172095
0.196552 0.985048 -0.17228
0.197011 0.984951 -0.172833
0.19747 0.984937 -0.172916
0.197929 0.984752 -0.173967
0.198388 0.984764 -0.173895
0.198847 0.984962 -0.172774
0.199306 0.984713 -0.174183
0.199765 0.984488 -0.175454
0.200224 0.984543 -0.175143
0.200683 0.984533 -0.175198
0.201142 0.984529 -0.175219
0.201601 0.984291 -0.176554
0.20206 0.984459 -0.175613
0.202519 0.984332 -0.176326
0.202978 0.984097 -0.177631
0.203437 0.984084 -0.177706
0.203896 0.983992 -0.178215
0.204355 0.983936 -0.178524
0.204814 0.983938 -0.178508
0.205273 0.983937 -0.178518
0.205732 0.983819 -0.179168
0.206191 0.983691 -0.179865
0.20665 0.983599 -0.18037
0.207109 0.983488 -0.180972
0.207568 0.983597 -0.180379
0.208027 0.983582 -0.180463
0.208486 0.983317 -0.181902
0.208945 0.983339 -0.181781
0.209404 0.983251 -0.182257
0.209863 0.983258 -0.182218
0.210322 0.983225 -0.182399
0.210781 0.983182 -0.182627
0.21124 0.982885 -0.184221
0.211699 0.982861 -0.184349
0.212158 0.982918 -0.184047
0.212617 0.982698 -0.185216
0.213076 0.982769 -0.184839
0.213535 0.9827 -0.185206
0.213994 0.982683 -0.185294
0.214453 0.982588 -0.185796
0.214912 0.9825 -0.186262
0.215371 0.982514 -0.186187
0.21583 0.982387 -0.186856
0.216289 0.982446 -0.186545
0.216748 0.982335 -0.187133
0.217207 0.982344 -0.187084
0.217666 0.982172 -0.187987
0.218125 0.982069 -0.188521
0.218584 0.981892 -0.189441
0.219043 0.981965 -0.189061
0.219502 0.981764 -0.190105
0.219961 0.981848 -0.189669
0.22042 0.981854 -0.18964
0.220879 0.981689 -0.190488
0.221338 0.981584 -0.191033
0.221797 0.981464 -0.191646
0.222256 0.981472 -0.191606
0.222715 0.981345 -0.192255
0.223174 0.981325 -0.192358
0.223633 0.981226 -0.192861
0.224092 0.98076 -0.195218
0.224551 0.980947 -0.194275
0.22501 0.981218 -0.192902
0.225469 0.981121 -0.193393
0.225928 0.980956 -0.19423
0.226387 0.980817 -0.194932
0.226846 0.98077 -0.195165
0.227305 0.980665 -0.195695
0.227764 0.980312 -0.197455
0.228223 0.980562 -0.196212
0.228682 0.98055 -0.196269
0.229141 0.980354 -0.197246
0.2296 0.980363 -0.1972
